
T65D8 000:035 SEGGER J-Link V6.14a Log File (0000ms, 0022ms total)
T65D8 000:035 DLL Compiled: Feb 27 2017 18:41:26 (0000ms, 0022ms total)
T65D8 000:035 Logging started @ 2024-06-24 17:40 (0000ms, 0022ms total)
T65D8 000:035 JLINK_SetWarnOutHandler(...) (0000ms, 0022ms total)
T65D8 000:035 JLINK_OpenEx(...)
Firmware: J-Link V9 compiled Dec 13 2019 11:14:50
Hardware: V9.20
Feature(s): GDB, RDI, FlashBP, FlashDL, JFlashWEBSRV Webserver running on local port 19080 (0013ms, 0035ms total)
T65D8 000:035   returns O.K. (0013ms, 0035ms total)
T65D8 000:048 JLINK_SetErrorOutHandler(...) (0000ms, 0035ms total)
T65D8 000:048 JLINK_ExecCommand("ProjectFile = "D:\Docs\Workspace_Tony\Prj_ÎÞÏß½âÂë°å_PY32F002A\MDK-ARM\JLinkSettings.ini"", ...). C:\Program Files (x86)\SEGGER\JLink_V614a\JLinkDevices.xml evaluated successfully.Device "CORTEX-M0+" selected.  returns 0x00 (0072ms, 0107ms total)
T65D8 000:121 JLINK_ExecCommand("Device = PY32F002Ax5", ...). Device "CORTEX-M0+" selected.  returns 0x00 (0001ms, 0108ms total)
T65D8 000:122 JLINK_ExecCommand("DisableConnectionTimeout", ...).   returns 0x01 (0000ms, 0108ms total)
T65D8 000:122 JLINK_GetHardwareVersion()  returns 0x16760 (0000ms, 0108ms total)
T65D8 000:122 JLINK_GetDLLVersion()  returns 61401 (0000ms, 0108ms total)
T65D8 000:122 JLINK_GetFirmwareString(...) (0000ms, 0108ms total)
T65D8 000:124 JLINK_GetDLLVersion()  returns 61401 (0000ms, 0108ms total)
T65D8 000:124 JLINK_GetCompileDateTime() (0000ms, 0108ms total)
T65D8 000:125 JLINK_GetFirmwareString(...) (0000ms, 0108ms total)
T65D8 000:126 JLINK_GetHardwareVersion()  returns 0x16760 (0000ms, 0108ms total)
T65D8 000:127 JLINK_TIF_Select(JLINKARM_TIF_SWD)  returns 0x00 (0001ms, 0109ms total)
T65D8 000:128 JLINK_SetSpeed(5000) (0000ms, 0109ms total)
T65D8 000:128 JLINK_GetId() >0x108 TIF>Found SWD-DP with ID 0x0BC11477 >0x0D TIF> >0x28 TIF> >0x0D TIF> >0x28 TIF> >0x0D TIF> >0x28 TIF> >0x0D TIF> >0x28 TIF> >0x0D TIF> >0x21 TIF> >0x0D TIF> >0x28 TIF> >0x0D TIF> >0x28 TIF> >0x0D TIF> >0x21 TIF> >0x0D TIF> >0x21 TIF> >0x0D TIF> >0x21 TIF>AP-IDR: 0x04770031, Type: AHB-APAHB-AP ROM: 0xE00FF000 (Base addr. of first ROM table) >0x0D TIF> >0x28 TIF> >0x0D TIF> >0x28 TIF> >0x0D TIF> >0x28 TIF> >0x0D TIF> >0x21 TIF> >0x0D TIF> >0x21 TIF> >0x0D TIF> >0x28 TIF>
 >0x0D TIF> >0x21 TIF> >0x0D TIF> >0x21 TIF>Found Cortex-M0 r0p1, Little endian. -- CPU_ReadMem(4 bytes @ 0xE000EDF0) -- CPU_WriteMem(4 bytes @ 0xE000EDF0) -- CPU_ReadMem(4 bytes @ 0xE0002000)FPUnit: 4 code (BP) slots and 0 literal slots -- CPU_ReadMem(4 bytes @ 0xE000EDFC) -- CPU_WriteMem(4 bytes @ 0xE000EDFC) -- CPU_ReadMem(4 bytes @ 0xE0001000) -- CPU_WriteMem(4 bytes @ 0xE0001000)CoreSight components:ROMTbl 0 @ E00FF000 -- CPU_ReadMem(16 bytes @ 0xE00FF000) -- CPU_ReadMem(16 bytes @ 0xE000EFF0)
 -- CPU_ReadMem(16 bytes @ 0xE000EFE0)ROMTbl 0 [0]: FFF0F000, CID: B105E00D, PID: 000BB008 SCS -- CPU_ReadMem(16 bytes @ 0xE0001FF0) -- CPU_ReadMem(16 bytes @ 0xE0001FE0)ROMTbl 0 [1]: FFF02000, CID: B105E00D, PID: 000BB00A DWT -- CPU_ReadMem(16 bytes @ 0xE0002FF0) -- CPU_ReadMem(16 bytes @ 0xE0002FE0)ROMTbl 0 [2]: FFF03000, CID: B105E00D, PID: 000BB00B FPB >0x0D TIF> >0x21 TIF>  returns 0x0BC11477 (0021ms, 0130ms total)
T65D8 000:149 JLINK_GetDLLVersion()  returns 61401 (0000ms, 0130ms total)
T65D8 000:149 JLINK_CORE_GetFound()  returns 0x60000FF (0000ms, 0130ms total)
T65D8 000:149 JLINK_GetDebugInfo(0x100 = JLINKARM_ROM_TABLE_ADDR_INDEX) -- Value=0xE00FF000  returns 0x00 (0000ms, 0130ms total)
T65D8 000:150 JLINK_GetDebugInfo(0x100 = JLINKARM_ROM_TABLE_ADDR_INDEX) -- Value=0xE00FF000  returns 0x00 (0000ms, 0130ms total)
T65D8 000:150 JLINK_GetDebugInfo(0x101 = JLINKARM_DEBUG_INFO_ETM_ADDR_INDEX) -- Value=0x00000000  returns 0x00 (0000ms, 0130ms total)
T65D8 000:150 JLINK_ReadMem (0xE0041FF0, 0x0010 Bytes, ...) -- CPU is running -- CPU_ReadMem(16 bytes @ 0xE0041FF0) - Data: 00 00 00 00 00 00 00 00 00 00 00 00 00 00 00 00  returns 0x00 (0000ms, 0130ms total)
T65D8 000:150 JLINK_GetDebugInfo(0x102 = JLINKARM_DEBUG_INFO_MTB_ADDR_INDEX) -- Value=0x00000000  returns 0x00 (0000ms, 0130ms total)
T65D8 000:150 JLINK_GetDebugInfo(0x103 = JLINKARM_DEBUG_INFO_TPIU_ADDR_INDEX) -- Value=0x00000000  returns 0x00 (0000ms, 0130ms total)
T65D8 000:150 JLINK_ReadMem (0xE0040FF0, 0x0010 Bytes, ...) -- CPU is running -- CPU_ReadMem(16 bytes @ 0xE0040FF0) - Data: 00 00 00 00 00 00 00 00 00 00 00 00 00 00 00 00  returns 0x00 (0000ms, 0130ms total)
T65D8 000:150 JLINK_GetDebugInfo(0x104 = JLINKARM_DEBUG_INFO_ITM_ADDR_INDEX) -- Value=0xE0000000  returns 0x00 (0000ms, 0130ms total)
T65D8 000:150 JLINK_GetDebugInfo(0x105 = JLINKARM_DEBUG_INFO_DWT_ADDR_INDEX) -- Value=0xE0001000  returns 0x00 (0000ms, 0130ms total)
T65D8 000:150 JLINK_GetDebugInfo(0x106 = JLINKARM_DEBUG_INFO_FPB_ADDR_INDEX) -- Value=0xE0002000  returns 0x00 (0000ms, 0130ms total)
T65D8 000:150 JLINK_GetDebugInfo(0x107 = JLINKARM_DEBUG_INFO_NVIC_ADDR_INDEX) -- Value=0xE000E000  returns 0x00 (0000ms, 0130ms total)
T65D8 000:150 JLINK_GetDebugInfo(0x10C = JLINKARM_DEBUG_INFO_DBG_ADDR_INDEX) -- Value=0xE000EDF0  returns 0x00 (0000ms, 0130ms total)
T65D8 000:150 JLINK_ReadMemU32(0xE000ED00, 0x0001 Items, ...) -- CPU is running -- CPU_ReadMem(4 bytes @ 0xE000ED00) - Data: 01 C6 0C 41  returns 0x01 (0001ms, 0131ms total)
T65D8 000:151 JLINK_SetResetType(JLINKARM_CM3_RESET_TYPE_NORMAL)  returns JLINKARM_CM3_RESET_TYPE_NORMAL (0000ms, 0131ms total)
T65D8 000:151 JLINK_Reset() -- CPU is running -- CPU_WriteMem(4 bytes @ 0xE000EDF0) -- CPU is running -- CPU_WriteMem(4 bytes @ 0xE000EDFC) >0x35 TIF> -- CPU is running -- CPU_WriteMem(4 bytes @ 0xE000ED0C) -- CPU is running -- CPU_ReadMem(4 bytes @ 0xE000EDF0) -- CPU is running -- CPU_ReadMem(4 bytes @ 0xE000EDF0) -- CPU is running -- CPU_WriteMem(4 bytes @ 0xE000EDF0) -- CPU is running -- CPU_WriteMem(4 bytes @ 0xE000EDFC) -- CPU is running -- CPU_ReadMem(4 bytes @ 0xE000EDF0)
 -- CPU_WriteMem(4 bytes @ 0xE0002000) -- CPU_ReadMem(4 bytes @ 0xE000EDFC) -- CPU_ReadMem(4 bytes @ 0xE0001000) -- CPU_WriteMem(4 bytes @ 0xE0001000) (0013ms, 0144ms total)
T65D8 000:164 JLINK_Halt()  returns 0x00 (0000ms, 0144ms total)
T65D8 000:164 JLINK_IsHalted()  returns TRUE (0000ms, 0144ms total)
T65D8 000:164 JLINK_ReadMemU32(0xE000EDF0, 0x0001 Items, ...) -- CPU_ReadMem(4 bytes @ 0xE000EDF0) - Data: 03 00 03 00  returns 0x01 (0001ms, 0145ms total)
T65D8 000:165 JLINK_WriteU32(0xE000EDF0, 0xA05F0003) -- CPU_WriteMem(4 bytes @ 0xE000EDF0)  returns 0x00 (0000ms, 0145ms total)
T65D8 000:165 JLINK_WriteU32(0xE000EDFC, 0x01000000) -- CPU_WriteMem(4 bytes @ 0xE000EDFC)  returns 0x00 (0000ms, 0145ms total)
T65D8 000:168 JLINK_GetHWStatus(...)  returns 0x00 (0000ms, 0145ms total)
T65D8 000:170 JLINK_GetNumBPUnits(Type = 0xFFFFFF00)  returns 0x04 (0000ms, 0145ms total)
T65D8 000:170 JLINK_GetNumBPUnits(Type = 0xF0)  returns 0x2000 (0000ms, 0145ms total)
T65D8 000:170 JLINK_GetNumWPUnits()  returns 0x02 (0000ms, 0145ms total)
T65D8 000:172 JLINK_GetSpeed()  returns 0xFA0 (0000ms, 0145ms total)
T65D8 000:173 JLINK_ReadMemU32(0xE000E004, 0x0001 Items, ...) -- CPU_ReadMem(4 bytes @ 0xE000E004) - Data: 00 00 00 00  returns 0x01 (0000ms, 0145ms total)
T65D8 000:173 JLINK_Halt()  returns 0x00 (0000ms, 0145ms total)
T65D8 000:173 JLINK_IsHalted()  returns TRUE (0000ms, 0145ms total)
T65D8 000:175 JLINK_WriteMem(0x20000000, 0x028C Bytes, ...) - Data: 00 BE 0A E0 0D 78 2D 06 68 40 08 24 40 00 00 D3 ... -- CPU_WriteMem(652 bytes @ 0x20000000)  returns 0x28C (0003ms, 0148ms total)
T65D8 000:178 JLINK_WriteReg(R0, 0x08000000)  returns 0x00 (0000ms, 0148ms total)
T65D8 000:178 JLINK_WriteReg(R1, 0x00B71B00)  returns 0x00 (0000ms, 0148ms total)
T65D8 000:178 JLINK_WriteReg(R2, 0x00000001)  returns 0x00 (0000ms, 0148ms total)
T65D8 000:178 JLINK_WriteReg(R3, 0x00000000)  returns 0x00 (0000ms, 0148ms total)
T65D8 000:178 JLINK_WriteReg(R4, 0x00000000)  returns 0x00 (0000ms, 0148ms total)
T65D8 000:178 JLINK_WriteReg(R5, 0x00000000)  returns 0x00 (0000ms, 0148ms total)
T65D8 000:178 JLINK_WriteReg(R6, 0x00000000)  returns 0x00 (0000ms, 0148ms total)
T65D8 000:178 JLINK_WriteReg(R7, 0x00000000)  returns 0x00 (0000ms, 0148ms total)
T65D8 000:178 JLINK_WriteReg(R8, 0x00000000)  returns 0x00 (0000ms, 0148ms total)
T65D8 000:178 JLINK_WriteReg(R9, 0x20000284)  returns 0x00 (0000ms, 0148ms total)
T65D8 000:178 JLINK_WriteReg(R10, 0x00000000)  returns 0x00 (0000ms, 0148ms total)
T65D8 000:178 JLINK_WriteReg(R11, 0x00000000)  returns 0x00 (0000ms, 0148ms total)
T65D8 000:178 JLINK_WriteReg(R12, 0x00000000)  returns 0x00 (0000ms, 0148ms total)
T65D8 000:178 JLINK_WriteReg(R13 (SP), 0x20000800)  returns 0x00 (0000ms, 0148ms total)
T65D8 000:178 JLINK_WriteReg(R14, 0x20000001)  returns 0x00 (0000ms, 0148ms total)
T65D8 000:178 JLINK_WriteReg(R15 (PC), 0x2000009C)  returns 0x00 (0000ms, 0148ms total)
T65D8 000:178 JLINK_WriteReg(XPSR, 0x01000000)  returns 0x00 (0000ms, 0148ms total)
T65D8 000:178 JLINK_WriteReg(MSP, 0x20000800)  returns 0x00 (0000ms, 0148ms total)
T65D8 000:178 JLINK_WriteReg(PSP, 0x20000800)  returns 0x00 (0000ms, 0148ms total)
T65D8 000:178 JLINK_WriteReg(CFBP, 0x00000000)  returns 0x00 (0000ms, 0148ms total)
T65D8 000:178 JLINK_SetBPEx(Addr = 0x20000000, Type = 0xFFFFFFF2) -- CPU_ReadMem(4 bytes @ 0x20000000) -- CPU_WriteMem(4 bytes @ 0x20000000) -- CPU_ReadMem(4 bytes @ 0x20000000) -- CPU_WriteMem(4 bytes @ 0x20000000) -- CPU_ReadMem(2 bytes @ 0x20000000)  returns 0x00000001 (0002ms, 0150ms total)
T65D8 000:180 JLINK_Go() -- CPU_WriteMem(2 bytes @ 0x20000000) -- CPU_ReadMem(4 bytes @ 0xE0001000) -- CPU_WriteMem(4 bytes @ 0xE0001000) -- CPU_WriteMem(4 bytes @ 0xE0002008) -- CPU_WriteMem(4 bytes @ 0xE000200C) -- CPU_WriteMem(4 bytes @ 0xE0002010) -- CPU_WriteMem(4 bytes @ 0xE0002014) -- CPU_WriteMem(4 bytes @ 0xE0001004) (0003ms, 0153ms total)
T65D8 000:183 JLINK_IsHalted() -- CPU_ReadMem(2 bytes @ 0x20000000)  returns TRUE (0002ms, 0155ms total)
T65D8 000:185 JLINK_ReadReg(R15 (PC))  returns 0x20000000 (0000ms, 0153ms total)
T65D8 000:185 JLINK_ClrBPEx(BPHandle = 0x00000001)  returns 0x00 (0000ms, 0153ms total)
T65D8 000:185 JLINK_ReadReg(R0)  returns 0x00000000 (0000ms, 0153ms total)
T65D8 000:185 JLINK_WriteReg(R0, 0x08000000)  returns 0x00 (0000ms, 0153ms total)
T65D8 000:185 JLINK_WriteReg(R1, 0x00B71B00)  returns 0x00 (0000ms, 0153ms total)
T65D8 000:185 JLINK_WriteReg(R2, 0x00000001)  returns 0x00 (0000ms, 0153ms total)
T65D8 000:185 JLINK_WriteReg(R3, 0x00000000)  returns 0x00 (0000ms, 0153ms total)
T65D8 000:185 JLINK_WriteReg(R4, 0x00000000)  returns 0x00 (0000ms, 0153ms total)
T65D8 000:185 JLINK_WriteReg(R5, 0x00000000)  returns 0x00 (0000ms, 0153ms total)
T65D8 000:185 JLINK_WriteReg(R6, 0x00000000)  returns 0x00 (0000ms, 0153ms total)
T65D8 000:185 JLINK_WriteReg(R7, 0x00000000)  returns 0x00 (0000ms, 0153ms total)
T65D8 000:185 JLINK_WriteReg(R8, 0x00000000)  returns 0x00 (0000ms, 0153ms total)
T65D8 000:185 JLINK_WriteReg(R9, 0x20000284)  returns 0x00 (0000ms, 0153ms total)
T65D8 000:185 JLINK_WriteReg(R10, 0x00000000)  returns 0x00 (0000ms, 0153ms total)
T65D8 000:185 JLINK_WriteReg(R11, 0x00000000)  returns 0x00 (0000ms, 0153ms total)
T65D8 000:185 JLINK_WriteReg(R12, 0x00000000)  returns 0x00 (0000ms, 0153ms total)
T65D8 000:185 JLINK_WriteReg(R13 (SP), 0x20000800)  returns 0x00 (0000ms, 0153ms total)
T65D8 000:185 JLINK_WriteReg(R14, 0x20000001)  returns 0x00 (0000ms, 0153ms total)
T65D8 000:185 JLINK_WriteReg(R15 (PC), 0x2000014C)  returns 0x00 (0000ms, 0153ms total)
T65D8 000:185 JLINK_WriteReg(XPSR, 0x01000000)  returns 0x00 (0000ms, 0153ms total)
T65D8 000:185 JLINK_WriteReg(MSP, 0x20000800)  returns 0x00 (0000ms, 0153ms total)
T65D8 000:185 JLINK_WriteReg(PSP, 0x20000800)  returns 0x00 (0000ms, 0153ms total)
T65D8 000:185 JLINK_WriteReg(CFBP, 0x00000000)  returns 0x00 (0000ms, 0153ms total)
T65D8 000:185 JLINK_SetBPEx(Addr = 0x20000000, Type = 0xFFFFFFF2)  returns 0x00000002 (0000ms, 0153ms total)
T65D8 000:185 JLINK_Go() -- CPU_ReadMem(4 bytes @ 0xE0001000) -- CPU_WriteMem(4 bytes @ 0xE0001000) (0002ms, 0155ms total)
T65D8 000:187 JLINK_IsHalted()  returns FALSE (0004ms, 0159ms total)
T65D8 000:212 JLINK_IsHalted() -- CPU_ReadMem(2 bytes @ 0x20000000)  returns TRUE (0002ms, 0157ms total)
T65D8 000:214 JLINK_ReadReg(R15 (PC))  returns 0x20000000 (0000ms, 0155ms total)
T65D8 000:214 JLINK_ClrBPEx(BPHandle = 0x00000002)  returns 0x00 (0000ms, 0155ms total)
T65D8 000:214 JLINK_ReadReg(R0)  returns 0x00000000 (0000ms, 0155ms total)
T65D8 000:266 JLINK_WriteReg(R0, 0x00000001)  returns 0x00 (0000ms, 0155ms total)
T65D8 000:266 JLINK_WriteReg(R1, 0x00B71B00)  returns 0x00 (0000ms, 0155ms total)
T65D8 000:266 JLINK_WriteReg(R2, 0x00000001)  returns 0x00 (0000ms, 0155ms total)
T65D8 000:266 JLINK_WriteReg(R3, 0x00000000)  returns 0x00 (0000ms, 0155ms total)
T65D8 000:266 JLINK_WriteReg(R4, 0x00000000)  returns 0x00 (0000ms, 0155ms total)
T65D8 000:266 JLINK_WriteReg(R5, 0x00000000)  returns 0x00 (0000ms, 0155ms total)
T65D8 000:266 JLINK_WriteReg(R6, 0x00000000)  returns 0x00 (0000ms, 0155ms total)
T65D8 000:266 JLINK_WriteReg(R7, 0x00000000)  returns 0x00 (0000ms, 0155ms total)
T65D8 000:266 JLINK_WriteReg(R8, 0x00000000)  returns 0x00 (0000ms, 0155ms total)
T65D8 000:266 JLINK_WriteReg(R9, 0x20000284)  returns 0x00 (0000ms, 0155ms total)
T65D8 000:266 JLINK_WriteReg(R10, 0x00000000)  returns 0x00 (0000ms, 0155ms total)
T65D8 000:266 JLINK_WriteReg(R11, 0x00000000)  returns 0x00 (0000ms, 0155ms total)
T65D8 000:266 JLINK_WriteReg(R12, 0x00000000)  returns 0x00 (0000ms, 0155ms total)
T65D8 000:266 JLINK_WriteReg(R13 (SP), 0x20000800)  returns 0x00 (0000ms, 0155ms total)
T65D8 000:266 JLINK_WriteReg(R14, 0x20000001)  returns 0x00 (0000ms, 0155ms total)
T65D8 000:266 JLINK_WriteReg(R15 (PC), 0x20000138)  returns 0x00 (0000ms, 0155ms total)
T65D8 000:266 JLINK_WriteReg(XPSR, 0x01000000)  returns 0x00 (0000ms, 0155ms total)
T65D8 000:266 JLINK_WriteReg(MSP, 0x20000800)  returns 0x00 (0000ms, 0155ms total)
T65D8 000:266 JLINK_WriteReg(PSP, 0x20000800)  returns 0x00 (0000ms, 0155ms total)
T65D8 000:266 JLINK_WriteReg(CFBP, 0x00000000)  returns 0x00 (0000ms, 0155ms total)
T65D8 000:266 JLINK_SetBPEx(Addr = 0x20000000, Type = 0xFFFFFFF2)  returns 0x00000003 (0000ms, 0155ms total)
T65D8 000:266 JLINK_Go() -- CPU_ReadMem(4 bytes @ 0xE0001000) -- CPU_WriteMem(4 bytes @ 0xE0001000) (0002ms, 0157ms total)
T65D8 000:268 JLINK_IsHalted() -- CPU_ReadMem(2 bytes @ 0x20000000)  returns TRUE (0002ms, 0159ms total)
T65D8 000:270 JLINK_ReadReg(R15 (PC))  returns 0x20000000 (0000ms, 0157ms total)
T65D8 000:270 JLINK_ClrBPEx(BPHandle = 0x00000003)  returns 0x00 (0000ms, 0157ms total)
T65D8 000:270 JLINK_ReadReg(R0)  returns 0x00000000 (0000ms, 0157ms total)
T65D8 000:275 JLINK_WriteMem(0x20000000, 0x028C Bytes, ...) - Data: 00 BE 0A E0 0D 78 2D 06 68 40 08 24 40 00 00 D3 ... -- CPU_WriteMem(652 bytes @ 0x20000000)  returns 0x28C (0003ms, 0160ms total)
T65D8 000:278 JLINK_WriteReg(R0, 0x08000000)  returns 0x00 (0000ms, 0160ms total)
T65D8 000:278 JLINK_WriteReg(R1, 0x00B71B00)  returns 0x00 (0000ms, 0160ms total)
T65D8 000:278 JLINK_WriteReg(R2, 0x00000002)  returns 0x00 (0000ms, 0160ms total)
T65D8 000:278 JLINK_WriteReg(R3, 0x00000000)  returns 0x00 (0000ms, 0160ms total)
T65D8 000:278 JLINK_WriteReg(R4, 0x00000000)  returns 0x00 (0000ms, 0160ms total)
T65D8 000:278 JLINK_WriteReg(R5, 0x00000000)  returns 0x00 (0000ms, 0160ms total)
T65D8 000:278 JLINK_WriteReg(R6, 0x00000000)  returns 0x00 (0000ms, 0160ms total)
T65D8 000:278 JLINK_WriteReg(R7, 0x00000000)  returns 0x00 (0000ms, 0160ms total)
T65D8 000:278 JLINK_WriteReg(R8, 0x00000000)  returns 0x00 (0000ms, 0160ms total)
T65D8 000:278 JLINK_WriteReg(R9, 0x20000284)  returns 0x00 (0000ms, 0160ms total)
T65D8 000:278 JLINK_WriteReg(R10, 0x00000000)  returns 0x00 (0000ms, 0160ms total)
T65D8 000:278 JLINK_WriteReg(R11, 0x00000000)  returns 0x00 (0000ms, 0160ms total)
T65D8 000:278 JLINK_WriteReg(R12, 0x00000000)  returns 0x00 (0000ms, 0160ms total)
T65D8 000:278 JLINK_WriteReg(R13 (SP), 0x20000800)  returns 0x00 (0000ms, 0160ms total)
T65D8 000:278 JLINK_WriteReg(R14, 0x20000001)  returns 0x00 (0000ms, 0160ms total)
T65D8 000:278 JLINK_WriteReg(R15 (PC), 0x2000009C)  returns 0x00 (0000ms, 0160ms total)
T65D8 000:278 JLINK_WriteReg(XPSR, 0x01000000)  returns 0x00 (0000ms, 0160ms total)
T65D8 000:278 JLINK_WriteReg(MSP, 0x20000800)  returns 0x00 (0000ms, 0160ms total)
T65D8 000:278 JLINK_WriteReg(PSP, 0x20000800)  returns 0x00 (0000ms, 0160ms total)
T65D8 000:278 JLINK_WriteReg(CFBP, 0x00000000)  returns 0x00 (0000ms, 0160ms total)
T65D8 000:278 JLINK_SetBPEx(Addr = 0x20000000, Type = 0xFFFFFFF2) -- CPU_ReadMem(4 bytes @ 0x20000000) -- CPU_WriteMem(4 bytes @ 0x20000000) -- CPU_ReadMem(4 bytes @ 0x20000000) -- CPU_WriteMem(4 bytes @ 0x20000000) -- CPU_ReadMem(2 bytes @ 0x20000000)  returns 0x00000004 (0002ms, 0162ms total)
T65D8 000:280 JLINK_Go() -- CPU_WriteMem(2 bytes @ 0x20000000) -- CPU_ReadMem(4 bytes @ 0xE0001000) -- CPU_WriteMem(4 bytes @ 0xE0001000) (0002ms, 0164ms total)
T65D8 000:282 JLINK_IsHalted() -- CPU_ReadMem(2 bytes @ 0x20000000)  returns TRUE (0002ms, 0166ms total)
T65D8 000:284 JLINK_ReadReg(R15 (PC))  returns 0x20000000 (0000ms, 0164ms total)
T65D8 000:284 JLINK_ClrBPEx(BPHandle = 0x00000004)  returns 0x00 (0000ms, 0164ms total)
T65D8 000:284 JLINK_ReadReg(R0)  returns 0x00000000 (0000ms, 0164ms total)
T65D8 000:284 JLINK_WriteMem(0x2000028C, 0x0080 Bytes, ...) - Data: 08 05 00 20 D5 00 00 08 5D 06 00 08 1D 04 00 08 ... -- CPU_WriteMem(128 bytes @ 0x2000028C)  returns 0x80 (0001ms, 0165ms total)
T65D8 000:285 JLINK_WriteReg(R0, 0x08000000)  returns 0x00 (0000ms, 0165ms total)
T65D8 000:285 JLINK_WriteReg(R1, 0x00000080)  returns 0x00 (0000ms, 0165ms total)
T65D8 000:285 JLINK_WriteReg(R2, 0x2000028C)  returns 0x00 (0000ms, 0165ms total)
T65D8 000:285 JLINK_WriteReg(R3, 0x00000000)  returns 0x00 (0000ms, 0165ms total)
T65D8 000:285 JLINK_WriteReg(R4, 0x00000000)  returns 0x00 (0000ms, 0165ms total)
T65D8 000:285 JLINK_WriteReg(R5, 0x00000000)  returns 0x00 (0000ms, 0165ms total)
T65D8 000:285 JLINK_WriteReg(R6, 0x00000000)  returns 0x00 (0000ms, 0165ms total)
T65D8 000:285 JLINK_WriteReg(R7, 0x00000000)  returns 0x00 (0000ms, 0165ms total)
T65D8 000:285 JLINK_WriteReg(R8, 0x00000000)  returns 0x00 (0000ms, 0165ms total)
T65D8 000:285 JLINK_WriteReg(R9, 0x20000284)  returns 0x00 (0000ms, 0165ms total)
T65D8 000:285 JLINK_WriteReg(R10, 0x00000000)  returns 0x00 (0000ms, 0165ms total)
T65D8 000:285 JLINK_WriteReg(R11, 0x00000000)  returns 0x00 (0000ms, 0165ms total)
T65D8 000:285 JLINK_WriteReg(R12, 0x00000000)  returns 0x00 (0000ms, 0165ms total)
T65D8 000:285 JLINK_WriteReg(R13 (SP), 0x20000800)  returns 0x00 (0000ms, 0165ms total)
T65D8 000:285 JLINK_WriteReg(R14, 0x20000001)  returns 0x00 (0000ms, 0165ms total)
T65D8 000:285 JLINK_WriteReg(R15 (PC), 0x200001E6)  returns 0x00 (0000ms, 0165ms total)
T65D8 000:285 JLINK_WriteReg(XPSR, 0x01000000)  returns 0x00 (0000ms, 0165ms total)
T65D8 000:285 JLINK_WriteReg(MSP, 0x20000800)  returns 0x00 (0000ms, 0165ms total)
T65D8 000:285 JLINK_WriteReg(PSP, 0x20000800)  returns 0x00 (0000ms, 0165ms total)
T65D8 000:285 JLINK_WriteReg(CFBP, 0x00000000)  returns 0x00 (0000ms, 0165ms total)
T65D8 000:285 JLINK_SetBPEx(Addr = 0x20000000, Type = 0xFFFFFFF2)  returns 0x00000005 (0000ms, 0165ms total)
T65D8 000:285 JLINK_Go() -- CPU_ReadMem(4 bytes @ 0xE0001000) -- CPU_WriteMem(4 bytes @ 0xE0001000) (0002ms, 0167ms total)
T65D8 000:287 JLINK_IsHalted()  returns FALSE (0001ms, 0168ms total)
T65D8 000:296 JLINK_IsHalted() -- CPU_ReadMem(2 bytes @ 0x20000000)  returns TRUE (0002ms, 0169ms total)
T65D8 000:298 JLINK_ReadReg(R15 (PC))  returns 0x20000000 (0000ms, 0167ms total)
T65D8 000:298 JLINK_ClrBPEx(BPHandle = 0x00000005)  returns 0x00 (0000ms, 0167ms total)
T65D8 000:298 JLINK_ReadReg(R0)  returns 0x00000000 (0000ms, 0167ms total)
T65D8 000:298 JLINK_WriteMem(0x2000028C, 0x0080 Bytes, ...) - Data: 00 00 00 00 35 06 00 08 00 00 00 00 00 00 00 00 ... -- CPU_WriteMem(128 bytes @ 0x2000028C)  returns 0x80 (0002ms, 0169ms total)
T65D8 000:300 JLINK_WriteReg(R0, 0x08000080)  returns 0x00 (0000ms, 0169ms total)
T65D8 000:300 JLINK_WriteReg(R1, 0x00000080)  returns 0x00 (0000ms, 0169ms total)
T65D8 000:300 JLINK_WriteReg(R2, 0x2000028C)  returns 0x00 (0000ms, 0169ms total)
T65D8 000:300 JLINK_WriteReg(R3, 0x00000000)  returns 0x00 (0000ms, 0169ms total)
T65D8 000:300 JLINK_WriteReg(R4, 0x00000000)  returns 0x00 (0000ms, 0169ms total)
T65D8 000:300 JLINK_WriteReg(R5, 0x00000000)  returns 0x00 (0000ms, 0169ms total)
T65D8 000:300 JLINK_WriteReg(R6, 0x00000000)  returns 0x00 (0000ms, 0169ms total)
T65D8 000:300 JLINK_WriteReg(R7, 0x00000000)  returns 0x00 (0000ms, 0169ms total)
T65D8 000:300 JLINK_WriteReg(R8, 0x00000000)  returns 0x00 (0000ms, 0169ms total)
T65D8 000:300 JLINK_WriteReg(R9, 0x20000284)  returns 0x00 (0000ms, 0169ms total)
T65D8 000:300 JLINK_WriteReg(R10, 0x00000000)  returns 0x00 (0000ms, 0169ms total)
T65D8 000:300 JLINK_WriteReg(R11, 0x00000000)  returns 0x00 (0000ms, 0169ms total)
T65D8 000:300 JLINK_WriteReg(R12, 0x00000000)  returns 0x00 (0000ms, 0169ms total)
T65D8 000:300 JLINK_WriteReg(R13 (SP), 0x20000800)  returns 0x00 (0000ms, 0169ms total)
T65D8 000:300 JLINK_WriteReg(R14, 0x20000001)  returns 0x00 (0000ms, 0169ms total)
T65D8 000:300 JLINK_WriteReg(R15 (PC), 0x200001E6)  returns 0x00 (0000ms, 0169ms total)
T65D8 000:300 JLINK_WriteReg(XPSR, 0x01000000)  returns 0x00 (0000ms, 0169ms total)
T65D8 000:300 JLINK_WriteReg(MSP, 0x20000800)  returns 0x00 (0000ms, 0169ms total)
T65D8 000:300 JLINK_WriteReg(PSP, 0x20000800)  returns 0x00 (0000ms, 0169ms total)
T65D8 000:300 JLINK_WriteReg(CFBP, 0x00000000)  returns 0x00 (0000ms, 0169ms total)
T65D8 000:300 JLINK_SetBPEx(Addr = 0x20000000, Type = 0xFFFFFFF2)  returns 0x00000006 (0000ms, 0169ms total)
T65D8 000:300 JLINK_Go() -- CPU_ReadMem(4 bytes @ 0xE0001000) -- CPU_WriteMem(4 bytes @ 0xE0001000) (0001ms, 0170ms total)
T65D8 000:301 JLINK_IsHalted()  returns FALSE (0001ms, 0171ms total)
T65D8 000:304 JLINK_IsHalted() -- CPU_ReadMem(2 bytes @ 0x20000000)  returns TRUE (0002ms, 0172ms total)
T65D8 000:306 JLINK_ReadReg(R15 (PC))  returns 0x20000000 (0000ms, 0170ms total)
T65D8 000:306 JLINK_ClrBPEx(BPHandle = 0x00000006)  returns 0x00 (0000ms, 0170ms total)
T65D8 000:306 JLINK_ReadReg(R0)  returns 0x00000000 (0000ms, 0170ms total)
T65D8 000:306 JLINK_WriteMem(0x2000028C, 0x0080 Bytes, ...) - Data: D5 40 9D 42 05 D3 1D 46 95 40 49 1B 25 46 95 40 ... -- CPU_WriteMem(128 bytes @ 0x2000028C)  returns 0x80 (0001ms, 0171ms total)
T65D8 000:307 JLINK_WriteReg(R0, 0x08000100)  returns 0x00 (0000ms, 0171ms total)
T65D8 000:307 JLINK_WriteReg(R1, 0x00000080)  returns 0x00 (0000ms, 0171ms total)
T65D8 000:307 JLINK_WriteReg(R2, 0x2000028C)  returns 0x00 (0000ms, 0171ms total)
T65D8 000:307 JLINK_WriteReg(R3, 0x00000000)  returns 0x00 (0000ms, 0171ms total)
T65D8 000:307 JLINK_WriteReg(R4, 0x00000000)  returns 0x00 (0000ms, 0171ms total)
T65D8 000:307 JLINK_WriteReg(R5, 0x00000000)  returns 0x00 (0000ms, 0171ms total)
T65D8 000:307 JLINK_WriteReg(R6, 0x00000000)  returns 0x00 (0000ms, 0171ms total)
T65D8 000:307 JLINK_WriteReg(R7, 0x00000000)  returns 0x00 (0000ms, 0171ms total)
T65D8 000:307 JLINK_WriteReg(R8, 0x00000000)  returns 0x00 (0000ms, 0171ms total)
T65D8 000:307 JLINK_WriteReg(R9, 0x20000284)  returns 0x00 (0000ms, 0171ms total)
T65D8 000:307 JLINK_WriteReg(R10, 0x00000000)  returns 0x00 (0000ms, 0171ms total)
T65D8 000:307 JLINK_WriteReg(R11, 0x00000000)  returns 0x00 (0000ms, 0171ms total)
T65D8 000:307 JLINK_WriteReg(R12, 0x00000000)  returns 0x00 (0000ms, 0171ms total)
T65D8 000:307 JLINK_WriteReg(R13 (SP), 0x20000800)  returns 0x00 (0000ms, 0171ms total)
T65D8 000:307 JLINK_WriteReg(R14, 0x20000001)  returns 0x00 (0000ms, 0171ms total)
T65D8 000:307 JLINK_WriteReg(R15 (PC), 0x200001E6)  returns 0x00 (0000ms, 0171ms total)
T65D8 000:307 JLINK_WriteReg(XPSR, 0x01000000)  returns 0x00 (0000ms, 0171ms total)
T65D8 000:307 JLINK_WriteReg(MSP, 0x20000800)  returns 0x00 (0000ms, 0171ms total)
T65D8 000:307 JLINK_WriteReg(PSP, 0x20000800)  returns 0x00 (0000ms, 0171ms total)
T65D8 000:307 JLINK_WriteReg(CFBP, 0x00000000)  returns 0x00 (0000ms, 0171ms total)
T65D8 000:307 JLINK_SetBPEx(Addr = 0x20000000, Type = 0xFFFFFFF2)  returns 0x00000007 (0000ms, 0171ms total)
T65D8 000:307 JLINK_Go() -- CPU_ReadMem(4 bytes @ 0xE0001000) -- CPU_WriteMem(4 bytes @ 0xE0001000) (0002ms, 0173ms total)
T65D8 000:309 JLINK_IsHalted()  returns FALSE (0001ms, 0174ms total)
T65D8 000:312 JLINK_IsHalted() -- CPU_ReadMem(2 bytes @ 0x20000000)  returns TRUE (0001ms, 0174ms total)
T65D8 000:313 JLINK_ReadReg(R15 (PC))  returns 0x20000000 (0000ms, 0173ms total)
T65D8 000:313 JLINK_ClrBPEx(BPHandle = 0x00000007)  returns 0x00 (0000ms, 0173ms total)
T65D8 000:313 JLINK_ReadReg(R0)  returns 0x00000000 (0000ms, 0173ms total)
T65D8 000:314 JLINK_WriteMem(0x2000028C, 0x0080 Bytes, ...) - Data: 00 9F 00 F0 1F F8 38 18 4D 41 00 90 20 46 64 1E ... -- CPU_WriteMem(128 bytes @ 0x2000028C)  returns 0x80 (0001ms, 0174ms total)
T65D8 000:315 JLINK_WriteReg(R0, 0x08000180)  returns 0x00 (0000ms, 0174ms total)
T65D8 000:315 JLINK_WriteReg(R1, 0x00000080)  returns 0x00 (0000ms, 0174ms total)
T65D8 000:315 JLINK_WriteReg(R2, 0x2000028C)  returns 0x00 (0000ms, 0174ms total)
T65D8 000:315 JLINK_WriteReg(R3, 0x00000000)  returns 0x00 (0000ms, 0174ms total)
T65D8 000:315 JLINK_WriteReg(R4, 0x00000000)  returns 0x00 (0000ms, 0174ms total)
T65D8 000:315 JLINK_WriteReg(R5, 0x00000000)  returns 0x00 (0000ms, 0174ms total)
T65D8 000:315 JLINK_WriteReg(R6, 0x00000000)  returns 0x00 (0000ms, 0174ms total)
T65D8 000:315 JLINK_WriteReg(R7, 0x00000000)  returns 0x00 (0000ms, 0174ms total)
T65D8 000:315 JLINK_WriteReg(R8, 0x00000000)  returns 0x00 (0000ms, 0174ms total)
T65D8 000:315 JLINK_WriteReg(R9, 0x20000284)  returns 0x00 (0000ms, 0174ms total)
T65D8 000:315 JLINK_WriteReg(R10, 0x00000000)  returns 0x00 (0000ms, 0174ms total)
T65D8 000:315 JLINK_WriteReg(R11, 0x00000000)  returns 0x00 (0000ms, 0174ms total)
T65D8 000:315 JLINK_WriteReg(R12, 0x00000000)  returns 0x00 (0000ms, 0174ms total)
T65D8 000:315 JLINK_WriteReg(R13 (SP), 0x20000800)  returns 0x00 (0000ms, 0174ms total)
T65D8 000:315 JLINK_WriteReg(R14, 0x20000001)  returns 0x00 (0000ms, 0174ms total)
T65D8 000:315 JLINK_WriteReg(R15 (PC), 0x200001E6)  returns 0x00 (0000ms, 0174ms total)
T65D8 000:315 JLINK_WriteReg(XPSR, 0x01000000)  returns 0x00 (0000ms, 0174ms total)
T65D8 000:315 JLINK_WriteReg(MSP, 0x20000800)  returns 0x00 (0000ms, 0174ms total)
T65D8 000:315 JLINK_WriteReg(PSP, 0x20000800)  returns 0x00 (0000ms, 0174ms total)
T65D8 000:315 JLINK_WriteReg(CFBP, 0x00000000)  returns 0x00 (0000ms, 0174ms total)
T65D8 000:315 JLINK_SetBPEx(Addr = 0x20000000, Type = 0xFFFFFFF2)  returns 0x00000008 (0000ms, 0174ms total)
T65D8 000:315 JLINK_Go() -- CPU_ReadMem(4 bytes @ 0xE0001000) -- CPU_WriteMem(4 bytes @ 0xE0001000) (0002ms, 0176ms total)
T65D8 000:317 JLINK_IsHalted()  returns FALSE (0001ms, 0177ms total)
T65D8 000:320 JLINK_IsHalted() -- CPU_ReadMem(2 bytes @ 0x20000000)  returns TRUE (0002ms, 0178ms total)
T65D8 000:322 JLINK_ReadReg(R15 (PC))  returns 0x20000000 (0000ms, 0176ms total)
T65D8 000:322 JLINK_ClrBPEx(BPHandle = 0x00000008)  returns 0x00 (0000ms, 0176ms total)
T65D8 000:322 JLINK_ReadReg(R0)  returns 0x00000000 (0000ms, 0176ms total)
T65D8 000:322 JLINK_WriteMem(0x2000028C, 0x0080 Bytes, ...) - Data: 08 43 19 46 10 BD 00 00 70 B5 01 25 ED 06 00 24 ... -- CPU_WriteMem(128 bytes @ 0x2000028C)  returns 0x80 (0001ms, 0177ms total)
T65D8 000:323 JLINK_WriteReg(R0, 0x08000200)  returns 0x00 (0000ms, 0177ms total)
T65D8 000:323 JLINK_WriteReg(R1, 0x00000080)  returns 0x00 (0000ms, 0177ms total)
T65D8 000:323 JLINK_WriteReg(R2, 0x2000028C)  returns 0x00 (0000ms, 0177ms total)
T65D8 000:323 JLINK_WriteReg(R3, 0x00000000)  returns 0x00 (0000ms, 0177ms total)
T65D8 000:323 JLINK_WriteReg(R4, 0x00000000)  returns 0x00 (0000ms, 0177ms total)
T65D8 000:323 JLINK_WriteReg(R5, 0x00000000)  returns 0x00 (0000ms, 0177ms total)
T65D8 000:323 JLINK_WriteReg(R6, 0x00000000)  returns 0x00 (0000ms, 0177ms total)
T65D8 000:323 JLINK_WriteReg(R7, 0x00000000)  returns 0x00 (0000ms, 0177ms total)
T65D8 000:323 JLINK_WriteReg(R8, 0x00000000)  returns 0x00 (0000ms, 0177ms total)
T65D8 000:323 JLINK_WriteReg(R9, 0x20000284)  returns 0x00 (0000ms, 0177ms total)
T65D8 000:323 JLINK_WriteReg(R10, 0x00000000)  returns 0x00 (0000ms, 0177ms total)
T65D8 000:323 JLINK_WriteReg(R11, 0x00000000)  returns 0x00 (0000ms, 0177ms total)
T65D8 000:323 JLINK_WriteReg(R12, 0x00000000)  returns 0x00 (0000ms, 0177ms total)
T65D8 000:323 JLINK_WriteReg(R13 (SP), 0x20000800)  returns 0x00 (0000ms, 0177ms total)
T65D8 000:323 JLINK_WriteReg(R14, 0x20000001)  returns 0x00 (0000ms, 0177ms total)
T65D8 000:323 JLINK_WriteReg(R15 (PC), 0x200001E6)  returns 0x00 (0000ms, 0177ms total)
T65D8 000:323 JLINK_WriteReg(XPSR, 0x01000000)  returns 0x00 (0000ms, 0177ms total)
T65D8 000:323 JLINK_WriteReg(MSP, 0x20000800)  returns 0x00 (0000ms, 0177ms total)
T65D8 000:323 JLINK_WriteReg(PSP, 0x20000800)  returns 0x00 (0000ms, 0177ms total)
T65D8 000:323 JLINK_WriteReg(CFBP, 0x00000000)  returns 0x00 (0000ms, 0177ms total)
T65D8 000:323 JLINK_SetBPEx(Addr = 0x20000000, Type = 0xFFFFFFF2)  returns 0x00000009 (0000ms, 0177ms total)
T65D8 000:323 JLINK_Go() -- CPU_ReadMem(4 bytes @ 0xE0001000) -- CPU_WriteMem(4 bytes @ 0xE0001000) (0002ms, 0179ms total)
T65D8 000:325 JLINK_IsHalted()  returns FALSE (0001ms, 0180ms total)
T65D8 000:328 JLINK_IsHalted() -- CPU_ReadMem(2 bytes @ 0x20000000)  returns TRUE (0002ms, 0181ms total)
T65D8 000:330 JLINK_ReadReg(R15 (PC))  returns 0x20000000 (0000ms, 0179ms total)
T65D8 000:330 JLINK_ClrBPEx(BPHandle = 0x00000009)  returns 0x00 (0000ms, 0179ms total)
T65D8 000:330 JLINK_ReadReg(R0)  returns 0x00000000 (0000ms, 0179ms total)
T65D8 000:330 JLINK_WriteMem(0x2000028C, 0x0080 Bytes, ...) - Data: 07 48 00 F0 93 F9 06 48 00 F0 8B F9 0D 20 00 F0 ... -- CPU_WriteMem(128 bytes @ 0x2000028C)  returns 0x80 (0001ms, 0180ms total)
T65D8 000:331 JLINK_WriteReg(R0, 0x08000280)  returns 0x00 (0000ms, 0180ms total)
T65D8 000:331 JLINK_WriteReg(R1, 0x00000080)  returns 0x00 (0000ms, 0180ms total)
T65D8 000:331 JLINK_WriteReg(R2, 0x2000028C)  returns 0x00 (0000ms, 0180ms total)
T65D8 000:331 JLINK_WriteReg(R3, 0x00000000)  returns 0x00 (0000ms, 0180ms total)
T65D8 000:331 JLINK_WriteReg(R4, 0x00000000)  returns 0x00 (0000ms, 0180ms total)
T65D8 000:331 JLINK_WriteReg(R5, 0x00000000)  returns 0x00 (0000ms, 0180ms total)
T65D8 000:331 JLINK_WriteReg(R6, 0x00000000)  returns 0x00 (0000ms, 0180ms total)
T65D8 000:331 JLINK_WriteReg(R7, 0x00000000)  returns 0x00 (0000ms, 0180ms total)
T65D8 000:331 JLINK_WriteReg(R8, 0x00000000)  returns 0x00 (0000ms, 0180ms total)
T65D8 000:331 JLINK_WriteReg(R9, 0x20000284)  returns 0x00 (0000ms, 0180ms total)
T65D8 000:331 JLINK_WriteReg(R10, 0x00000000)  returns 0x00 (0000ms, 0180ms total)
T65D8 000:331 JLINK_WriteReg(R11, 0x00000000)  returns 0x00 (0000ms, 0180ms total)
T65D8 000:331 JLINK_WriteReg(R12, 0x00000000)  returns 0x00 (0000ms, 0180ms total)
T65D8 000:331 JLINK_WriteReg(R13 (SP), 0x20000800)  returns 0x00 (0000ms, 0180ms total)
T65D8 000:331 JLINK_WriteReg(R14, 0x20000001)  returns 0x00 (0000ms, 0180ms total)
T65D8 000:331 JLINK_WriteReg(R15 (PC), 0x200001E6)  returns 0x00 (0000ms, 0180ms total)
T65D8 000:331 JLINK_WriteReg(XPSR, 0x01000000)  returns 0x00 (0000ms, 0180ms total)
T65D8 000:331 JLINK_WriteReg(MSP, 0x20000800)  returns 0x00 (0000ms, 0180ms total)
T65D8 000:331 JLINK_WriteReg(PSP, 0x20000800)  returns 0x00 (0000ms, 0180ms total)
T65D8 000:331 JLINK_WriteReg(CFBP, 0x00000000)  returns 0x00 (0000ms, 0180ms total)
T65D8 000:331 JLINK_SetBPEx(Addr = 0x20000000, Type = 0xFFFFFFF2)  returns 0x0000000A (0000ms, 0180ms total)
T65D8 000:331 JLINK_Go() -- CPU_ReadMem(4 bytes @ 0xE0001000) -- CPU_WriteMem(4 bytes @ 0xE0001000) (0002ms, 0182ms total)
T65D8 000:333 JLINK_IsHalted()  returns FALSE (0001ms, 0183ms total)
T65D8 000:336 JLINK_IsHalted() -- CPU_ReadMem(2 bytes @ 0x20000000)  returns TRUE (0002ms, 0184ms total)
T65D8 000:338 JLINK_ReadReg(R15 (PC))  returns 0x20000000 (0000ms, 0182ms total)
T65D8 000:338 JLINK_ClrBPEx(BPHandle = 0x0000000A)  returns 0x00 (0000ms, 0182ms total)
T65D8 000:338 JLINK_ReadReg(R0)  returns 0x00000000 (0000ms, 0182ms total)
T65D8 000:338 JLINK_WriteMem(0x2000028C, 0x0080 Bytes, ...) - Data: 33 48 00 68 01 21 09 04 08 43 31 49 08 60 00 BF ... -- CPU_WriteMem(128 bytes @ 0x2000028C)  returns 0x80 (0001ms, 0183ms total)
T65D8 000:339 JLINK_WriteReg(R0, 0x08000300)  returns 0x00 (0000ms, 0183ms total)
T65D8 000:339 JLINK_WriteReg(R1, 0x00000080)  returns 0x00 (0000ms, 0183ms total)
T65D8 000:339 JLINK_WriteReg(R2, 0x2000028C)  returns 0x00 (0000ms, 0183ms total)
T65D8 000:339 JLINK_WriteReg(R3, 0x00000000)  returns 0x00 (0000ms, 0183ms total)
T65D8 000:339 JLINK_WriteReg(R4, 0x00000000)  returns 0x00 (0000ms, 0183ms total)
T65D8 000:339 JLINK_WriteReg(R5, 0x00000000)  returns 0x00 (0000ms, 0183ms total)
T65D8 000:339 JLINK_WriteReg(R6, 0x00000000)  returns 0x00 (0000ms, 0183ms total)
T65D8 000:339 JLINK_WriteReg(R7, 0x00000000)  returns 0x00 (0000ms, 0183ms total)
T65D8 000:339 JLINK_WriteReg(R8, 0x00000000)  returns 0x00 (0000ms, 0183ms total)
T65D8 000:339 JLINK_WriteReg(R9, 0x20000284)  returns 0x00 (0000ms, 0183ms total)
T65D8 000:339 JLINK_WriteReg(R10, 0x00000000)  returns 0x00 (0000ms, 0183ms total)
T65D8 000:339 JLINK_WriteReg(R11, 0x00000000)  returns 0x00 (0000ms, 0183ms total)
T65D8 000:339 JLINK_WriteReg(R12, 0x00000000)  returns 0x00 (0000ms, 0183ms total)
T65D8 000:339 JLINK_WriteReg(R13 (SP), 0x20000800)  returns 0x00 (0000ms, 0183ms total)
T65D8 000:339 JLINK_WriteReg(R14, 0x20000001)  returns 0x00 (0000ms, 0183ms total)
T65D8 000:339 JLINK_WriteReg(R15 (PC), 0x200001E6)  returns 0x00 (0000ms, 0183ms total)
T65D8 000:339 JLINK_WriteReg(XPSR, 0x01000000)  returns 0x00 (0000ms, 0183ms total)
T65D8 000:339 JLINK_WriteReg(MSP, 0x20000800)  returns 0x00 (0000ms, 0183ms total)
T65D8 000:339 JLINK_WriteReg(PSP, 0x20000800)  returns 0x00 (0000ms, 0183ms total)
T65D8 000:339 JLINK_WriteReg(CFBP, 0x00000000)  returns 0x00 (0000ms, 0183ms total)
T65D8 000:339 JLINK_SetBPEx(Addr = 0x20000000, Type = 0xFFFFFFF2)  returns 0x0000000B (0000ms, 0183ms total)
T65D8 000:339 JLINK_Go() -- CPU_ReadMem(4 bytes @ 0xE0001000) -- CPU_WriteMem(4 bytes @ 0xE0001000) (0002ms, 0185ms total)
T65D8 000:341 JLINK_IsHalted()  returns FALSE (0001ms, 0186ms total)
T65D8 000:344 JLINK_IsHalted() -- CPU_ReadMem(2 bytes @ 0x20000000)  returns TRUE (0002ms, 0187ms total)
T65D8 000:346 JLINK_ReadReg(R15 (PC))  returns 0x20000000 (0000ms, 0185ms total)
T65D8 000:346 JLINK_ClrBPEx(BPHandle = 0x0000000B)  returns 0x00 (0000ms, 0185ms total)
T65D8 000:346 JLINK_ReadReg(R0)  returns 0x00000000 (0000ms, 0185ms total)
T65D8 000:346 JLINK_WriteMem(0x2000028C, 0x0080 Bytes, ...) - Data: 07 22 12 03 91 43 01 43 11 4A 91 60 00 BF 12 48 ... -- CPU_WriteMem(128 bytes @ 0x2000028C)  returns 0x80 (0001ms, 0186ms total)
T65D8 000:347 JLINK_WriteReg(R0, 0x08000380)  returns 0x00 (0000ms, 0186ms total)
T65D8 000:347 JLINK_WriteReg(R1, 0x00000080)  returns 0x00 (0000ms, 0186ms total)
T65D8 000:347 JLINK_WriteReg(R2, 0x2000028C)  returns 0x00 (0000ms, 0186ms total)
T65D8 000:347 JLINK_WriteReg(R3, 0x00000000)  returns 0x00 (0000ms, 0186ms total)
T65D8 000:347 JLINK_WriteReg(R4, 0x00000000)  returns 0x00 (0000ms, 0186ms total)
T65D8 000:347 JLINK_WriteReg(R5, 0x00000000)  returns 0x00 (0000ms, 0186ms total)
T65D8 000:347 JLINK_WriteReg(R6, 0x00000000)  returns 0x00 (0000ms, 0186ms total)
T65D8 000:347 JLINK_WriteReg(R7, 0x00000000)  returns 0x00 (0000ms, 0186ms total)
T65D8 000:347 JLINK_WriteReg(R8, 0x00000000)  returns 0x00 (0000ms, 0186ms total)
T65D8 000:347 JLINK_WriteReg(R9, 0x20000284)  returns 0x00 (0000ms, 0186ms total)
T65D8 000:347 JLINK_WriteReg(R10, 0x00000000)  returns 0x00 (0000ms, 0186ms total)
T65D8 000:347 JLINK_WriteReg(R11, 0x00000000)  returns 0x00 (0000ms, 0186ms total)
T65D8 000:347 JLINK_WriteReg(R12, 0x00000000)  returns 0x00 (0000ms, 0186ms total)
T65D8 000:347 JLINK_WriteReg(R13 (SP), 0x20000800)  returns 0x00 (0000ms, 0186ms total)
T65D8 000:347 JLINK_WriteReg(R14, 0x20000001)  returns 0x00 (0000ms, 0186ms total)
T65D8 000:347 JLINK_WriteReg(R15 (PC), 0x200001E6)  returns 0x00 (0000ms, 0186ms total)
T65D8 000:347 JLINK_WriteReg(XPSR, 0x01000000)  returns 0x00 (0000ms, 0186ms total)
T65D8 000:347 JLINK_WriteReg(MSP, 0x20000800)  returns 0x00 (0000ms, 0186ms total)
T65D8 000:347 JLINK_WriteReg(PSP, 0x20000800)  returns 0x00 (0000ms, 0186ms total)
T65D8 000:347 JLINK_WriteReg(CFBP, 0x00000000)  returns 0x00 (0000ms, 0186ms total)
T65D8 000:347 JLINK_SetBPEx(Addr = 0x20000000, Type = 0xFFFFFFF2)  returns 0x0000000C (0000ms, 0186ms total)
T65D8 000:347 JLINK_Go() -- CPU_ReadMem(4 bytes @ 0xE0001000) -- CPU_WriteMem(4 bytes @ 0xE0001000) (0002ms, 0188ms total)
T65D8 000:349 JLINK_IsHalted()  returns FALSE (0001ms, 0189ms total)
T65D8 000:352 JLINK_IsHalted() -- CPU_ReadMem(2 bytes @ 0x20000000)  returns TRUE (0001ms, 0189ms total)
T65D8 000:353 JLINK_ReadReg(R15 (PC))  returns 0x20000000 (0000ms, 0188ms total)
T65D8 000:353 JLINK_ClrBPEx(BPHandle = 0x0000000C)  returns 0x00 (0000ms, 0188ms total)
T65D8 000:353 JLINK_ReadReg(R0)  returns 0x00000000 (0000ms, 0188ms total)
T65D8 000:354 JLINK_WriteMem(0x2000028C, 0x0080 Bytes, ...) - Data: 01 28 01 D1 00 F0 1A F8 10 BD 10 B5 80 20 00 F0 ... -- CPU_WriteMem(128 bytes @ 0x2000028C)  returns 0x80 (0001ms, 0189ms total)
T65D8 000:355 JLINK_WriteReg(R0, 0x08000400)  returns 0x00 (0000ms, 0189ms total)
T65D8 000:355 JLINK_WriteReg(R1, 0x00000080)  returns 0x00 (0000ms, 0189ms total)
T65D8 000:355 JLINK_WriteReg(R2, 0x2000028C)  returns 0x00 (0000ms, 0189ms total)
T65D8 000:355 JLINK_WriteReg(R3, 0x00000000)  returns 0x00 (0000ms, 0189ms total)
T65D8 000:355 JLINK_WriteReg(R4, 0x00000000)  returns 0x00 (0000ms, 0189ms total)
T65D8 000:355 JLINK_WriteReg(R5, 0x00000000)  returns 0x00 (0000ms, 0189ms total)
T65D8 000:355 JLINK_WriteReg(R6, 0x00000000)  returns 0x00 (0000ms, 0189ms total)
T65D8 000:355 JLINK_WriteReg(R7, 0x00000000)  returns 0x00 (0000ms, 0189ms total)
T65D8 000:355 JLINK_WriteReg(R8, 0x00000000)  returns 0x00 (0000ms, 0189ms total)
T65D8 000:355 JLINK_WriteReg(R9, 0x20000284)  returns 0x00 (0000ms, 0189ms total)
T65D8 000:355 JLINK_WriteReg(R10, 0x00000000)  returns 0x00 (0000ms, 0189ms total)
T65D8 000:355 JLINK_WriteReg(R11, 0x00000000)  returns 0x00 (0000ms, 0189ms total)
T65D8 000:355 JLINK_WriteReg(R12, 0x00000000)  returns 0x00 (0000ms, 0189ms total)
T65D8 000:355 JLINK_WriteReg(R13 (SP), 0x20000800)  returns 0x00 (0000ms, 0189ms total)
T65D8 000:355 JLINK_WriteReg(R14, 0x20000001)  returns 0x00 (0000ms, 0189ms total)
T65D8 000:355 JLINK_WriteReg(R15 (PC), 0x200001E6)  returns 0x00 (0000ms, 0189ms total)
T65D8 000:355 JLINK_WriteReg(XPSR, 0x01000000)  returns 0x00 (0000ms, 0189ms total)
T65D8 000:355 JLINK_WriteReg(MSP, 0x20000800)  returns 0x00 (0000ms, 0189ms total)
T65D8 000:355 JLINK_WriteReg(PSP, 0x20000800)  returns 0x00 (0000ms, 0189ms total)
T65D8 000:355 JLINK_WriteReg(CFBP, 0x00000000)  returns 0x00 (0000ms, 0189ms total)
T65D8 000:355 JLINK_SetBPEx(Addr = 0x20000000, Type = 0xFFFFFFF2)  returns 0x0000000D (0000ms, 0189ms total)
T65D8 000:355 JLINK_Go() -- CPU_ReadMem(4 bytes @ 0xE0001000) -- CPU_WriteMem(4 bytes @ 0xE0001000) (0001ms, 0190ms total)
T65D8 000:356 JLINK_IsHalted()  returns FALSE (0002ms, 0192ms total)
T65D8 000:360 JLINK_IsHalted() -- CPU_ReadMem(2 bytes @ 0x20000000)  returns TRUE (0002ms, 0192ms total)
T65D8 000:362 JLINK_ReadReg(R15 (PC))  returns 0x20000000 (0000ms, 0190ms total)
T65D8 000:362 JLINK_ClrBPEx(BPHandle = 0x0000000D)  returns 0x00 (0000ms, 0190ms total)
T65D8 000:362 JLINK_ReadReg(R0)  returns 0x00000000 (0000ms, 0190ms total)
T65D8 000:362 JLINK_WriteMem(0x2000028C, 0x0080 Bytes, ...) - Data: 45 43 2C 43 14 60 00 BF 58 68 01 28 02 D0 58 68 ... -- CPU_WriteMem(128 bytes @ 0x2000028C)  returns 0x80 (0001ms, 0191ms total)
T65D8 000:363 JLINK_WriteReg(R0, 0x08000480)  returns 0x00 (0000ms, 0191ms total)
T65D8 000:363 JLINK_WriteReg(R1, 0x00000080)  returns 0x00 (0000ms, 0191ms total)
T65D8 000:363 JLINK_WriteReg(R2, 0x2000028C)  returns 0x00 (0000ms, 0191ms total)
T65D8 000:363 JLINK_WriteReg(R3, 0x00000000)  returns 0x00 (0000ms, 0191ms total)
T65D8 000:363 JLINK_WriteReg(R4, 0x00000000)  returns 0x00 (0000ms, 0191ms total)
T65D8 000:363 JLINK_WriteReg(R5, 0x00000000)  returns 0x00 (0000ms, 0191ms total)
T65D8 000:363 JLINK_WriteReg(R6, 0x00000000)  returns 0x00 (0000ms, 0191ms total)
T65D8 000:363 JLINK_WriteReg(R7, 0x00000000)  returns 0x00 (0000ms, 0191ms total)
T65D8 000:363 JLINK_WriteReg(R8, 0x00000000)  returns 0x00 (0000ms, 0191ms total)
T65D8 000:363 JLINK_WriteReg(R9, 0x20000284)  returns 0x00 (0000ms, 0191ms total)
T65D8 000:363 JLINK_WriteReg(R10, 0x00000000)  returns 0x00 (0000ms, 0191ms total)
T65D8 000:363 JLINK_WriteReg(R11, 0x00000000)  returns 0x00 (0000ms, 0191ms total)
T65D8 000:363 JLINK_WriteReg(R12, 0x00000000)  returns 0x00 (0000ms, 0191ms total)
T65D8 000:363 JLINK_WriteReg(R13 (SP), 0x20000800)  returns 0x00 (0000ms, 0191ms total)
T65D8 000:363 JLINK_WriteReg(R14, 0x20000001)  returns 0x00 (0000ms, 0191ms total)
T65D8 000:363 JLINK_WriteReg(R15 (PC), 0x200001E6)  returns 0x00 (0000ms, 0191ms total)
T65D8 000:363 JLINK_WriteReg(XPSR, 0x01000000)  returns 0x00 (0000ms, 0191ms total)
T65D8 000:363 JLINK_WriteReg(MSP, 0x20000800)  returns 0x00 (0000ms, 0191ms total)
T65D8 000:363 JLINK_WriteReg(PSP, 0x20000800)  returns 0x00 (0000ms, 0191ms total)
T65D8 000:363 JLINK_WriteReg(CFBP, 0x00000000)  returns 0x00 (0000ms, 0191ms total)
T65D8 000:363 JLINK_SetBPEx(Addr = 0x20000000, Type = 0xFFFFFFF2)  returns 0x0000000E (0000ms, 0191ms total)
T65D8 000:363 JLINK_Go() -- CPU_ReadMem(4 bytes @ 0xE0001000) -- CPU_WriteMem(4 bytes @ 0xE0001000) (0002ms, 0193ms total)
T65D8 000:365 JLINK_IsHalted()  returns FALSE (0001ms, 0194ms total)
T65D8 000:368 JLINK_IsHalted() -- CPU_ReadMem(2 bytes @ 0x20000000)  returns TRUE (0002ms, 0195ms total)
T65D8 000:370 JLINK_ReadReg(R15 (PC))  returns 0x20000000 (0000ms, 0193ms total)
T65D8 000:370 JLINK_ClrBPEx(BPHandle = 0x0000000E)  returns 0x00 (0000ms, 0193ms total)
T65D8 000:370 JLINK_ReadReg(R0)  returns 0x00000000 (0000ms, 0193ms total)
T65D8 000:370 JLINK_WriteMem(0x2000028C, 0x0080 Bytes, ...) - Data: 60 43 0C 0A 60 43 04 01 24 1A 50 6A A0 43 0C 0A ... -- CPU_WriteMem(128 bytes @ 0x2000028C)  returns 0x80 (0001ms, 0194ms total)
T65D8 000:371 JLINK_WriteReg(R0, 0x08000500)  returns 0x00 (0000ms, 0194ms total)
T65D8 000:371 JLINK_WriteReg(R1, 0x00000080)  returns 0x00 (0000ms, 0194ms total)
T65D8 000:371 JLINK_WriteReg(R2, 0x2000028C)  returns 0x00 (0000ms, 0194ms total)
T65D8 000:371 JLINK_WriteReg(R3, 0x00000000)  returns 0x00 (0000ms, 0194ms total)
T65D8 000:371 JLINK_WriteReg(R4, 0x00000000)  returns 0x00 (0000ms, 0194ms total)
T65D8 000:371 JLINK_WriteReg(R5, 0x00000000)  returns 0x00 (0000ms, 0194ms total)
T65D8 000:371 JLINK_WriteReg(R6, 0x00000000)  returns 0x00 (0000ms, 0194ms total)
T65D8 000:371 JLINK_WriteReg(R7, 0x00000000)  returns 0x00 (0000ms, 0194ms total)
T65D8 000:371 JLINK_WriteReg(R8, 0x00000000)  returns 0x00 (0000ms, 0194ms total)
T65D8 000:371 JLINK_WriteReg(R9, 0x20000284)  returns 0x00 (0000ms, 0194ms total)
T65D8 000:371 JLINK_WriteReg(R10, 0x00000000)  returns 0x00 (0000ms, 0194ms total)
T65D8 000:371 JLINK_WriteReg(R11, 0x00000000)  returns 0x00 (0000ms, 0194ms total)
T65D8 000:371 JLINK_WriteReg(R12, 0x00000000)  returns 0x00 (0000ms, 0194ms total)
T65D8 000:371 JLINK_WriteReg(R13 (SP), 0x20000800)  returns 0x00 (0000ms, 0194ms total)
T65D8 000:371 JLINK_WriteReg(R14, 0x20000001)  returns 0x00 (0000ms, 0194ms total)
T65D8 000:371 JLINK_WriteReg(R15 (PC), 0x200001E6)  returns 0x00 (0000ms, 0194ms total)
T65D8 000:371 JLINK_WriteReg(XPSR, 0x01000000)  returns 0x00 (0000ms, 0194ms total)
T65D8 000:371 JLINK_WriteReg(MSP, 0x20000800)  returns 0x00 (0000ms, 0194ms total)
T65D8 000:371 JLINK_WriteReg(PSP, 0x20000800)  returns 0x00 (0000ms, 0194ms total)
T65D8 000:371 JLINK_WriteReg(CFBP, 0x00000000)  returns 0x00 (0000ms, 0194ms total)
T65D8 000:371 JLINK_SetBPEx(Addr = 0x20000000, Type = 0xFFFFFFF2)  returns 0x0000000F (0000ms, 0194ms total)
T65D8 000:371 JLINK_Go() -- CPU_ReadMem(4 bytes @ 0xE0001000) -- CPU_WriteMem(4 bytes @ 0xE0001000) (0002ms, 0196ms total)
T65D8 000:373 JLINK_IsHalted()  returns FALSE (0001ms, 0197ms total)
T65D8 000:376 JLINK_IsHalted() -- CPU_ReadMem(2 bytes @ 0x20000000)  returns TRUE (0002ms, 0198ms total)
T65D8 000:378 JLINK_ReadReg(R15 (PC))  returns 0x20000000 (0000ms, 0196ms total)
T65D8 000:378 JLINK_ClrBPEx(BPHandle = 0x0000000F)  returns 0x00 (0000ms, 0196ms total)
T65D8 000:378 JLINK_ReadReg(R0)  returns 0x00000000 (0000ms, 0196ms total)
T65D8 000:378 JLINK_WriteMem(0x2000028C, 0x0080 Bytes, ...) - Data: 08 61 00 BF 70 BD 00 00 00 E0 00 E0 01 49 08 60 ... -- CPU_WriteMem(128 bytes @ 0x2000028C)  returns 0x80 (0001ms, 0197ms total)
T65D8 000:379 JLINK_WriteReg(R0, 0x08000580)  returns 0x00 (0000ms, 0197ms total)
T65D8 000:379 JLINK_WriteReg(R1, 0x00000080)  returns 0x00 (0000ms, 0197ms total)
T65D8 000:379 JLINK_WriteReg(R2, 0x2000028C)  returns 0x00 (0000ms, 0197ms total)
T65D8 000:379 JLINK_WriteReg(R3, 0x00000000)  returns 0x00 (0000ms, 0197ms total)
T65D8 000:379 JLINK_WriteReg(R4, 0x00000000)  returns 0x00 (0000ms, 0197ms total)
T65D8 000:379 JLINK_WriteReg(R5, 0x00000000)  returns 0x00 (0000ms, 0197ms total)
T65D8 000:379 JLINK_WriteReg(R6, 0x00000000)  returns 0x00 (0000ms, 0197ms total)
T65D8 000:379 JLINK_WriteReg(R7, 0x00000000)  returns 0x00 (0000ms, 0197ms total)
T65D8 000:379 JLINK_WriteReg(R8, 0x00000000)  returns 0x00 (0000ms, 0197ms total)
T65D8 000:379 JLINK_WriteReg(R9, 0x20000284)  returns 0x00 (0000ms, 0197ms total)
T65D8 000:379 JLINK_WriteReg(R10, 0x00000000)  returns 0x00 (0000ms, 0197ms total)
T65D8 000:379 JLINK_WriteReg(R11, 0x00000000)  returns 0x00 (0000ms, 0197ms total)
T65D8 000:379 JLINK_WriteReg(R12, 0x00000000)  returns 0x00 (0000ms, 0197ms total)
T65D8 000:379 JLINK_WriteReg(R13 (SP), 0x20000800)  returns 0x00 (0000ms, 0197ms total)
T65D8 000:379 JLINK_WriteReg(R14, 0x20000001)  returns 0x00 (0000ms, 0197ms total)
T65D8 000:379 JLINK_WriteReg(R15 (PC), 0x200001E6)  returns 0x00 (0000ms, 0197ms total)
T65D8 000:379 JLINK_WriteReg(XPSR, 0x01000000)  returns 0x00 (0000ms, 0197ms total)
T65D8 000:380 JLINK_WriteReg(MSP, 0x20000800)  returns 0x00 (0000ms, 0198ms total)
T65D8 000:380 JLINK_WriteReg(PSP, 0x20000800)  returns 0x00 (0000ms, 0198ms total)
T65D8 000:380 JLINK_WriteReg(CFBP, 0x00000000)  returns 0x00 (0000ms, 0198ms total)
T65D8 000:380 JLINK_SetBPEx(Addr = 0x20000000, Type = 0xFFFFFFF2)  returns 0x00000010 (0000ms, 0198ms total)
T65D8 000:380 JLINK_Go() -- CPU_ReadMem(4 bytes @ 0xE0001000) -- CPU_WriteMem(4 bytes @ 0xE0001000) (0001ms, 0199ms total)
T65D8 000:381 JLINK_IsHalted()  returns FALSE (0002ms, 0201ms total)
T65D8 000:386 JLINK_IsHalted() -- CPU_ReadMem(2 bytes @ 0x20000000)  returns TRUE (0001ms, 0200ms total)
T65D8 000:387 JLINK_ReadReg(R15 (PC))  returns 0x20000000 (0000ms, 0199ms total)
T65D8 000:387 JLINK_ClrBPEx(BPHandle = 0x00000010)  returns 0x00 (0000ms, 0199ms total)
T65D8 000:387 JLINK_ReadReg(R0)  returns 0x00000000 (0000ms, 0199ms total)
T65D8 000:388 JLINK_WriteMem(0x2000028C, 0x0080 Bytes, ...) - Data: 82 42 03 D1 08 7C 10 63 00 BF 00 BF 00 BF 50 69 ... -- CPU_WriteMem(128 bytes @ 0x2000028C)  returns 0x80 (0001ms, 0200ms total)
T65D8 000:389 JLINK_WriteReg(R0, 0x08000600)  returns 0x00 (0000ms, 0200ms total)
T65D8 000:389 JLINK_WriteReg(R1, 0x00000080)  returns 0x00 (0000ms, 0200ms total)
T65D8 000:389 JLINK_WriteReg(R2, 0x2000028C)  returns 0x00 (0000ms, 0200ms total)
T65D8 000:389 JLINK_WriteReg(R3, 0x00000000)  returns 0x00 (0000ms, 0200ms total)
T65D8 000:389 JLINK_WriteReg(R4, 0x00000000)  returns 0x00 (0000ms, 0200ms total)
T65D8 000:389 JLINK_WriteReg(R5, 0x00000000)  returns 0x00 (0000ms, 0200ms total)
T65D8 000:389 JLINK_WriteReg(R6, 0x00000000)  returns 0x00 (0000ms, 0200ms total)
T65D8 000:389 JLINK_WriteReg(R7, 0x00000000)  returns 0x00 (0000ms, 0200ms total)
T65D8 000:389 JLINK_WriteReg(R8, 0x00000000)  returns 0x00 (0000ms, 0200ms total)
T65D8 000:389 JLINK_WriteReg(R9, 0x20000284)  returns 0x00 (0000ms, 0200ms total)
T65D8 000:389 JLINK_WriteReg(R10, 0x00000000)  returns 0x00 (0000ms, 0200ms total)
T65D8 000:389 JLINK_WriteReg(R11, 0x00000000)  returns 0x00 (0000ms, 0200ms total)
T65D8 000:389 JLINK_WriteReg(R12, 0x00000000)  returns 0x00 (0000ms, 0200ms total)
T65D8 000:389 JLINK_WriteReg(R13 (SP), 0x20000800)  returns 0x00 (0000ms, 0200ms total)
T65D8 000:389 JLINK_WriteReg(R14, 0x20000001)  returns 0x00 (0000ms, 0200ms total)
T65D8 000:389 JLINK_WriteReg(R15 (PC), 0x200001E6)  returns 0x00 (0000ms, 0200ms total)
T65D8 000:389 JLINK_WriteReg(XPSR, 0x01000000)  returns 0x00 (0000ms, 0200ms total)
T65D8 000:389 JLINK_WriteReg(MSP, 0x20000800)  returns 0x00 (0000ms, 0200ms total)
T65D8 000:389 JLINK_WriteReg(PSP, 0x20000800)  returns 0x00 (0000ms, 0200ms total)
T65D8 000:389 JLINK_WriteReg(CFBP, 0x00000000)  returns 0x00 (0000ms, 0200ms total)
T65D8 000:389 JLINK_SetBPEx(Addr = 0x20000000, Type = 0xFFFFFFF2)  returns 0x00000011 (0000ms, 0200ms total)
T65D8 000:389 JLINK_Go() -- CPU_ReadMem(4 bytes @ 0xE0001000) -- CPU_WriteMem(4 bytes @ 0xE0001000) (0002ms, 0202ms total)
T65D8 000:391 JLINK_IsHalted()  returns FALSE (0001ms, 0203ms total)
T65D8 000:394 JLINK_IsHalted() -- CPU_ReadMem(2 bytes @ 0x20000000)  returns TRUE (0002ms, 0204ms total)
T65D8 000:396 JLINK_ReadReg(R15 (PC))  returns 0x20000000 (0000ms, 0202ms total)
T65D8 000:396 JLINK_ClrBPEx(BPHandle = 0x00000011)  returns 0x00 (0000ms, 0202ms total)
T65D8 000:396 JLINK_ReadReg(R0)  returns 0x00000000 (0000ms, 0202ms total)
